
TBDB4 000:498 SEGGER J-Link V4.80g Log File (0001ms, 0318ms total)
TBDB4 000:498 DLL Compiled: Feb 13 2014 20:50:02 (0001ms, 0318ms total)
TBDB4 000:498 Logging started @ 2016-06-06 14:34 (0001ms, 0318ms total)
TBDB4 000:499 JLINK_SetWarnOutHandler(...) (0000ms, 0318ms total)
TBDB4 000:499 JLINK_OpenEx(...)
Firmware: J-Link ARM V8 compiled Nov 25 2013 19:20:08
Hardware: V8.00
S/N: 799713843
Feature(s): RDI,FlashDL,FlashBP,JFlash,GDBFULL  returns O.K. (0261ms, 0579ms total)
TBDB4 000:760 JLINK_SetErrorOutHandler(...) (0000ms, 0579ms total)
TBDB4 000:760 JLINK_ExecCommand("ProjectFile = "C:\Users\Administrator\Desktop\2号小车\门闸系统\JLinkSettings.ini"", ...)  returns 0x00 (0022ms, 0601ms total)
TBDB4 000:785 JLINK_ExecCommand("Device = STM32F103ZE", ...)Device "STM32F103ZE" selected (512 KB flash, 64 KB RAM).  returns 0x00 (0005ms, 0606ms total)
TBDB4 000:790 JLINK_ExecCommand("DisableConnectionTimeout", ...)  returns 0x01 (0000ms, 0606ms total)
TBDB4 000:790 JLINK_GetHardwareVersion()  returns 0x13880 (0000ms, 0606ms total)
TBDB4 000:790 JLINK_GetDLLVersion()  returns 48007 (0000ms, 0606ms total)
TBDB4 000:790 JLINK_GetFirmwareString(...) (0000ms, 0606ms total)
TBDB4 000:796 JLINK_GetDLLVersion()  returns 48007 (0000ms, 0606ms total)
TBDB4 000:796 JLINK_GetCompileDateTime() (0000ms, 0606ms total)
TBDB4 000:798 JLINK_GetFirmwareString(...) (0000ms, 0606ms total)
TBDB4 000:799 JLINK_GetHardwareVersion()  returns 0x13880 (0000ms, 0606ms total)
TBDB4 000:805 JLINK_TIF_Select(JLINKARM_TIF_JTAG)  returns 0x00 (0003ms, 0609ms total)
TBDB4 000:808 JLINK_SetSpeed(10000) (0001ms, 0610ms total)
TBDB4 000:809 JLINK_GetIdData(...) >0x2F8 JTAG>TotalIRLen = 9, IRPrint = 0x0011 >0x30 JTAG> >0x210 JTAG> >0x40 JTAG> >0x40 JTAG> >0x40 JTAG> >0x30 JTAG> >0x40 JTAG> >0x40 JTAG> >0x40 JTAG> >0x40 JTAG> >0x40 JTAG> >0x40 JTAG> >0x40 JTAG> >0x40 JTAG> >0x40 JTAG> >0x40 JTAG> >0x2F8 JTAG>TotalIRLen = 9, IRPrint = 0x0011 >0x30 JTAG> >0x210 JTAG> >0x70 JTAG> >0x40 JTAG> >0x40 JTAG> >0x40 JTAG> >0x50 JTAG> >0x80 JTAG> >0x40 JTAG> >0x30 JTAG> >0x40 JTAG> >0x40 JTAG> >0x30 JTAG> >0x40 JTAG> >0x50 JTAG>
Found Cortex-M3 r1p1, Little endian. -- CPU_WriteMem(4 bytes @ 0xE0002000) -- CPU_ReadMem(4 bytes @ 0xE000EDF0) -- CPU_WriteMem(4 bytes @ 0xE000EDF0) -- CPU_ReadMem(4 bytes @ 0xE0002000)FPUnit: 6 code (BP) slots and 2 literal slots -- CPU_ReadMem(4 bytes @ 0xE000EDFC) -- CPU_WriteMem(4 bytes @ 0xE000EDFC) -- CPU_ReadMem(4 bytes @ 0xE0001000) -- CPU_WriteMem(4 bytes @ 0xE0001000) -- CPU_ReadMem(4 bytes @ 0xE00FF010)TPIU fitted. -- CPU_ReadMem(4 bytes @ 0xE00FF014)ETM fitted.
 -- CPU_ReadMem(4 bytes @ 0xE00FF018) ScanLen=9 NumDevices=2 aId[0]=0x3BA00477 aIrRead[0]=0 aScanLen[0]=0 aScanRead[0]=0 (0042ms, 0652ms total)
TBDB4 000:851 JLINK_JTAG_GetDeviceID(DeviceIndex = 0)  returns 0x3BA00477 (0000ms, 0652ms total)
TBDB4 000:851 JLINK_JTAG_GetDeviceInfo(DeviceIndex = 0)  returns 0x00 (0000ms, 0652ms total)
TBDB4 000:851 JLINK_JTAG_GetDeviceID(DeviceIndex = 1)  returns 0x6414041 (0000ms, 0652ms total)
TBDB4 000:851 JLINK_JTAG_GetDeviceInfo(DeviceIndex = 1)  returns 0x00 (0000ms, 0652ms total)
TBDB4 000:851 JLINK_GetDeviceFamily()  returns 3 (0000ms, 0652ms total)
TBDB4 000:852 JLINK_ReadMem (0xE00FFFF0, 0x0010 Bytes, ...) -- CPU is running -- CPU_ReadMem(16 bytes @ 0xE00FFFF0) -- Data:  0D 00 00 00 10 00 00 00 05 00 00 00 B1 00 00 00  returns 0x00 (0001ms, 0653ms total)
TBDB4 000:853 JLINK_ReadMem (0xE00FFFD0, 0x0020 Bytes, ...) -- CPU is running -- CPU_ReadMem(32 bytes @ 0xE00FFFD0) -- Data:  00 00 00 00 00 00 00 00 00 00 00 00 00 00 00 00 ...  returns 0x00 (0001ms, 0654ms total)
TBDB4 000:854 JLINK_ReadMem (0xE00FF000, 0x0018 Bytes, ...) -- CPU is running -- CPU_ReadMem(24 bytes @ 0xE00FF000) -- Data:  03 F0 F0 FF 03 20 F0 FF 03 30 F0 FF 03 10 F0 FF ...  returns 0x00 (0000ms, 0654ms total)
TBDB4 000:855 JLINK_ReadMemU32(0xE000ED00, 0x0001 Items, ...) -- CPU is running -- CPU_ReadMem(4 bytes @ 0xE000ED00) -- Data:  31 C2 1F 41  returns 0x01 (0000ms, 0655ms total)
TBDB4 000:855 JLINK_SetResetType(JLINKARM_RESET_TYPE_NORMAL)  returns JLINKARM_RESET_TYPE_NORMAL (0000ms, 0655ms total)
TBDB4 000:855 JLINK_Reset() -- CPU is running -- CPU_WriteMem(4 bytes @ 0xE000EDF0) -- CPU is running -- CPU_WriteMem(4 bytes @ 0xE000EDFC) -- CPU is running -- CPU_WriteMem(4 bytes @ 0xE000ED0C) -- CPU is running -- CPU_ReadMem(4 bytes @ 0xE000EDF0) -- CPU is running -- CPU_ReadMem(4 bytes @ 0xE000EDF0) -- CPU is running -- CPU_WriteMem(4 bytes @ 0xE000EDF0) -- CPU is running -- CPU_WriteMem(4 bytes @ 0xE000EDFC) -- CPU is running -- CPU_ReadMem(4 bytes @ 0xE000EDF0) >0x80 JTAG> >0x40 JTAG> >0x30 JTAG>
 >0x40 JTAG> >0x50 JTAG> >0x40 JTAG> -- CPU_WriteMem(4 bytes @ 0xE000EDFC) -- CPU_WriteMem(4 bytes @ 0xE0001028) -- CPU_WriteMem(4 bytes @ 0xE0001038) -- CPU_WriteMem(4 bytes @ 0xE0001048) -- CPU_WriteMem(4 bytes @ 0xE0001058) -- CPU_WriteMem(4 bytes @ 0xE0002000) -- CPU_ReadMem(4 bytes @ 0xE000EDFC) -- CPU_ReadMem(4 bytes @ 0xE0001000) (0030ms, 0685ms total)
TBDB4 000:885 JLINK_Halt()  returns 0x00 (0000ms, 0685ms total)
TBDB4 000:885 JLINK_IsHalted()  returns TRUE (0000ms, 0685ms total)
TBDB4 000:885 JLINK_ReadMemU32(0xE000EDF0, 0x0001 Items, ...) -- CPU_ReadMem(4 bytes @ 0xE000EDF0) -- Data:  03 00 03 00  returns 0x01 (0001ms, 0686ms total)
TBDB4 000:886 JLINK_WriteU32(0xE000EDF0, 0xA05F0003) -- CPU_WriteMem(4 bytes @ 0xE000EDF0)  returns 0x00 (0000ms, 0686ms total)
TBDB4 000:886 JLINK_WriteU32(0xE000EDFC, 0x01000000) -- CPU_WriteMem(4 bytes @ 0xE000EDFC)  returns 0x00 (0001ms, 0687ms total)
TBDB4 000:892 JLINK_GetHWStatus(...)  returns 0x00 (0000ms, 0687ms total)
TBDB4 000:896 JLINK_GetNumBPUnits(Type = 0xFFFFFF00)  returns 0x06 (0000ms, 0687ms total)
TBDB4 000:896 JLINK_GetNumBPUnits(Type = 0xF0)  returns 0x2000 (0000ms, 0687ms total)
TBDB4 000:896 JLINK_GetNumWPUnits()  returns 0x04 (0000ms, 0687ms total)
TBDB4 000:899 JLINK_GetSpeed()  returns 0x2580 (0000ms, 0687ms total)
TBDB4 000:902 JLINK_ReadMemU32(0xE000E004, 0x0001 Items, ...) -- CPU_ReadMem(4 bytes @ 0xE000E004) -- Data:  01 00 00 00  returns 0x01 (0001ms, 0688ms total)
TBDB4 000:903 JLINK_ReadMemU32(0xE000E004, 0x0001 Items, ...) -- CPU_ReadMem(4 bytes @ 0xE000E004) -- Data:  01 00 00 00  returns 0x01 (0001ms, 0689ms total)
TBDB4 000:904 JLINK_WriteMem(0xE0001000, 0x001C Bytes, ...) -- Data:  01 00 00 00 00 00 00 00 00 00 00 00 00 00 00 00 ... -- CPU_WriteMem(28 bytes @ 0xE0001000)  returns 0x1C (0001ms, 0690ms total)
TBDB4 000:905 JLINK_ReadMem (0xE0001000, 0x001C Bytes, ...) -- CPU_ReadMem(28 bytes @ 0xE0001000) -- Data:  01 00 00 40 00 00 00 00 00 00 00 00 00 00 00 00 ...  returns 0x00 (0000ms, 0690ms total)
TBDB4 000:905 JLINK_Halt()  returns 0x00 (0000ms, 0690ms total)
TBDB4 000:905 JLINK_IsHalted()  returns TRUE (0000ms, 0690ms total)
TBDB4 000:947 JLINK_WriteMem(0x20000000, 0x0164 Bytes, ...) -- Data:  00 BE 0A E0 0D 78 2D 06 68 40 08 24 40 00 00 D3 ... -- CPU_WriteMem(356 bytes @ 0x20000000)  returns 0x164 (0003ms, 0693ms total)
TBDB4 000:950 JLINK_WriteReg(R0, 0x08000000)  returns 0x00 (0000ms, 0693ms total)
TBDB4 000:950 JLINK_WriteReg(R1, 0x007A1200)  returns 0x00 (0000ms, 0693ms total)
TBDB4 000:950 JLINK_WriteReg(R2, 0x00000001)  returns 0x00 (0000ms, 0693ms total)
TBDB4 000:950 JLINK_WriteReg(R3, 0x00000000)  returns 0x00 (0000ms, 0693ms total)
TBDB4 000:950 JLINK_WriteReg(R4, 0x00000000)  returns 0x00 (0000ms, 0693ms total)
TBDB4 000:950 JLINK_WriteReg(R5, 0x00000000)  returns 0x00 (0000ms, 0693ms total)
TBDB4 000:950 JLINK_WriteReg(R6, 0x00000000)  returns 0x00 (0000ms, 0693ms total)
TBDB4 000:950 JLINK_WriteReg(R7, 0x00000000)  returns 0x00 (0000ms, 0693ms total)
TBDB4 000:950 JLINK_WriteReg(R8, 0x00000000)  returns 0x00 (0000ms, 0693ms total)
TBDB4 000:950 JLINK_WriteReg(R9, 0x20000160)  returns 0x00 (0000ms, 0693ms total)
TBDB4 000:950 JLINK_WriteReg(R10, 0x00000000)  returns 0x00 (0000ms, 0693ms total)
TBDB4 000:950 JLINK_WriteReg(R11, 0x00000000)  returns 0x00 (0000ms, 0693ms total)
TBDB4 000:950 JLINK_WriteReg(R12, 0x00000000)  returns 0x00 (0000ms, 0693ms total)
TBDB4 000:950 JLINK_WriteReg(R13 (SP), 0x20000800)  returns 0x00 (0000ms, 0693ms total)
TBDB4 000:950 JLINK_WriteReg(R14, 0x20000001)  returns 0x00 (0000ms, 0693ms total)
TBDB4 000:950 JLINK_WriteReg(R15 (PC), 0x20000038)  returns 0x00 (0000ms, 0693ms total)
TBDB4 000:950 JLINK_WriteReg(XPSR, 0x01000000)  returns 0x00 (0000ms, 0693ms total)
TBDB4 000:950 JLINK_WriteReg(MSP, 0x20000800)  returns 0x00 (0000ms, 0693ms total)
TBDB4 000:950 JLINK_WriteReg(PSP, 0x20000800)  returns 0x00 (0000ms, 0693ms total)
TBDB4 000:950 JLINK_WriteReg(CFBP, 0x00000000)  returns 0x00 (0000ms, 0693ms total)
TBDB4 000:950 JLINK_SetBPEx(Addr = 0x20000000, Type = 0xFFFFFFF2) -- CPU_ReadMem(2 bytes @ 0x20000000)  returns 0x00000001 (0001ms, 0694ms total)
TBDB4 000:951 JLINK_Go() -- CPU_WriteMem(2 bytes @ 0x20000000) -- CPU_WriteMem(4 bytes @ 0xE0002008) -- CPU_WriteMem(4 bytes @ 0xE000200C) -- CPU_WriteMem(4 bytes @ 0xE0002010) -- CPU_WriteMem(4 bytes @ 0xE0002014) -- CPU_WriteMem(4 bytes @ 0xE0002018) -- CPU_WriteMem(4 bytes @ 0xE000201C) -- CPU_WriteMem(4 bytes @ 0xE0001004) (0008ms, 0702ms total)
TBDB4 000:959 JLINK_IsHalted() -- CPU_ReadMem(2 bytes @ 0x20000000)  returns TRUE (0004ms, 0706ms total)
TBDB4 000:963 JLINK_ReadReg(R15 (PC))  returns 0x20000000 (0000ms, 0702ms total)
TBDB4 000:963 JLINK_ClrBPEx(BPHandle = 0x00000001)  returns 0x00 (0000ms, 0702ms total)
TBDB4 000:963 JLINK_ReadReg(R0)  returns 0x00000000 (0000ms, 0702ms total)
TBDB4 000:963 JLINK_WriteReg(R0, 0x08000000)  returns 0x00 (0000ms, 0702ms total)
TBDB4 000:963 JLINK_WriteReg(R1, 0x007A1200)  returns 0x00 (0000ms, 0702ms total)
TBDB4 000:963 JLINK_WriteReg(R2, 0x00000001)  returns 0x00 (0000ms, 0702ms total)
TBDB4 000:963 JLINK_WriteReg(R3, 0x00000000)  returns 0x00 (0000ms, 0702ms total)
TBDB4 000:963 JLINK_WriteReg(R4, 0x00000000)  returns 0x00 (0000ms, 0702ms total)
TBDB4 000:963 JLINK_WriteReg(R5, 0x00000000)  returns 0x00 (0000ms, 0702ms total)
TBDB4 000:963 JLINK_WriteReg(R6, 0x00000000)  returns 0x00 (0000ms, 0702ms total)
TBDB4 000:963 JLINK_WriteReg(R7, 0x00000000)  returns 0x00 (0000ms, 0702ms total)
TBDB4 000:963 JLINK_WriteReg(R8, 0x00000000)  returns 0x00 (0000ms, 0702ms total)
TBDB4 000:963 JLINK_WriteReg(R9, 0x20000160)  returns 0x00 (0000ms, 0702ms total)
TBDB4 000:963 JLINK_WriteReg(R10, 0x00000000)  returns 0x00 (0000ms, 0702ms total)
TBDB4 000:963 JLINK_WriteReg(R11, 0x00000000)  returns 0x00 (0000ms, 0702ms total)
TBDB4 000:963 JLINK_WriteReg(R12, 0x00000000)  returns 0x00 (0000ms, 0702ms total)
TBDB4 000:963 JLINK_WriteReg(R13 (SP), 0x20000800)  returns 0x00 (0000ms, 0702ms total)
TBDB4 000:963 JLINK_WriteReg(R14, 0x20000001)  returns 0x00 (0000ms, 0702ms total)
TBDB4 000:963 JLINK_WriteReg(R15 (PC), 0x2000007C)  returns 0x00 (0000ms, 0702ms total)
TBDB4 000:963 JLINK_WriteReg(XPSR, 0x01000000)  returns 0x00 (0000ms, 0702ms total)
TBDB4 000:963 JLINK_WriteReg(MSP, 0x20000800)  returns 0x00 (0000ms, 0702ms total)
TBDB4 000:963 JLINK_WriteReg(PSP, 0x20000800)  returns 0x00 (0000ms, 0702ms total)
TBDB4 000:963 JLINK_WriteReg(CFBP, 0x00000000)  returns 0x00 (0000ms, 0702ms total)
TBDB4 000:963 JLINK_SetBPEx(Addr = 0x20000000, Type = 0xFFFFFFF2)  returns 0x00000002 (0000ms, 0702ms total)
TBDB4 000:963 JLINK_Go() (0002ms, 0704ms total)
TBDB4 000:965 JLINK_IsHalted()  returns FALSE (0000ms, 0704ms total)
TBDB4 001:024 JLINK_IsHalted() -- CPU_ReadMem(2 bytes @ 0x20000000)  returns TRUE (0004ms, 0708ms total)
TBDB4 001:028 JLINK_ReadReg(R15 (PC))  returns 0x20000000 (0000ms, 0704ms total)
TBDB4 001:028 JLINK_ClrBPEx(BPHandle = 0x00000002)  returns 0x00 (0000ms, 0704ms total)
TBDB4 001:028 JLINK_ReadReg(R0)  returns 0x00000000 (0000ms, 0704ms total)
TBDB4 001:079 JLINK_WriteReg(R0, 0x00000001)  returns 0x00 (0000ms, 0704ms total)
TBDB4 001:079 JLINK_WriteReg(R1, 0x007A1200)  returns 0x00 (0000ms, 0704ms total)
TBDB4 001:079 JLINK_WriteReg(R2, 0x00000001)  returns 0x00 (0000ms, 0704ms total)
TBDB4 001:079 JLINK_WriteReg(R3, 0x00000000)  returns 0x00 (0000ms, 0704ms total)
TBDB4 001:079 JLINK_WriteReg(R4, 0x00000000)  returns 0x00 (0000ms, 0704ms total)
TBDB4 001:079 JLINK_WriteReg(R5, 0x00000000)  returns 0x00 (0000ms, 0704ms total)
TBDB4 001:079 JLINK_WriteReg(R6, 0x00000000)  returns 0x00 (0000ms, 0704ms total)
TBDB4 001:079 JLINK_WriteReg(R7, 0x00000000)  returns 0x00 (0000ms, 0704ms total)
TBDB4 001:079 JLINK_WriteReg(R8, 0x00000000)  returns 0x00 (0000ms, 0704ms total)
TBDB4 001:079 JLINK_WriteReg(R9, 0x20000160)  returns 0x00 (0000ms, 0704ms total)
TBDB4 001:079 JLINK_WriteReg(R10, 0x00000000)  returns 0x00 (0000ms, 0704ms total)
TBDB4 001:079 JLINK_WriteReg(R11, 0x00000000)  returns 0x00 (0000ms, 0704ms total)
TBDB4 001:079 JLINK_WriteReg(R12, 0x00000000)  returns 0x00 (0000ms, 0704ms total)
TBDB4 001:079 JLINK_WriteReg(R13 (SP), 0x20000800)  returns 0x00 (0000ms, 0704ms total)
TBDB4 001:079 JLINK_WriteReg(R14, 0x20000001)  returns 0x00 (0000ms, 0704ms total)
TBDB4 001:079 JLINK_WriteReg(R15 (PC), 0x2000006A)  returns 0x00 (0000ms, 0704ms total)
TBDB4 001:079 JLINK_WriteReg(XPSR, 0x01000000)  returns 0x00 (0000ms, 0704ms total)
TBDB4 001:079 JLINK_WriteReg(MSP, 0x20000800)  returns 0x00 (0000ms, 0704ms total)
TBDB4 001:079 JLINK_WriteReg(PSP, 0x20000800)  returns 0x00 (0000ms, 0704ms total)
TBDB4 001:079 JLINK_WriteReg(CFBP, 0x00000000)  returns 0x00 (0000ms, 0704ms total)
TBDB4 001:079 JLINK_SetBPEx(Addr = 0x20000000, Type = 0xFFFFFFF2)  returns 0x00000003 (0000ms, 0704ms total)
TBDB4 001:079 JLINK_Go() (0002ms, 0706ms total)
TBDB4 001:081 JLINK_IsHalted() -- CPU_ReadMem(2 bytes @ 0x20000000)  returns TRUE (0004ms, 0710ms total)
TBDB4 001:085 JLINK_ReadReg(R15 (PC))  returns 0x20000000 (0000ms, 0706ms total)
TBDB4 001:085 JLINK_ClrBPEx(BPHandle = 0x00000003)  returns 0x00 (0000ms, 0706ms total)
TBDB4 001:085 JLINK_ReadReg(R0)  returns 0x00000000 (0000ms, 0706ms total)
TBDB4 001:087 JLINK_WriteMem(0x20000000, 0x0164 Bytes, ...) -- Data:  00 BE 0A E0 0D 78 2D 06 68 40 08 24 40 00 00 D3 ... -- CPU_WriteMem(356 bytes @ 0x20000000)  returns 0x164 (0003ms, 0709ms total)
TBDB4 001:090 JLINK_WriteReg(R0, 0x08000000)  returns 0x00 (0000ms, 0709ms total)
TBDB4 001:090 JLINK_WriteReg(R1, 0x007A1200)  returns 0x00 (0000ms, 0709ms total)
TBDB4 001:090 JLINK_WriteReg(R2, 0x00000002)  returns 0x00 (0000ms, 0709ms total)
TBDB4 001:090 JLINK_WriteReg(R3, 0x00000000)  returns 0x00 (0000ms, 0709ms total)
TBDB4 001:090 JLINK_WriteReg(R4, 0x00000000)  returns 0x00 (0000ms, 0709ms total)
TBDB4 001:090 JLINK_WriteReg(R5, 0x00000000)  returns 0x00 (0000ms, 0709ms total)
TBDB4 001:090 JLINK_WriteReg(R6, 0x00000000)  returns 0x00 (0000ms, 0709ms total)
TBDB4 001:090 JLINK_WriteReg(R7, 0x00000000)  returns 0x00 (0000ms, 0709ms total)
TBDB4 001:090 JLINK_WriteReg(R8, 0x00000000)  returns 0x00 (0000ms, 0709ms total)
TBDB4 001:090 JLINK_WriteReg(R9, 0x20000160)  returns 0x00 (0000ms, 0709ms total)
TBDB4 001:090 JLINK_WriteReg(R10, 0x00000000)  returns 0x00 (0000ms, 0709ms total)
TBDB4 001:090 JLINK_WriteReg(R11, 0x00000000)  returns 0x00 (0000ms, 0709ms total)
TBDB4 001:090 JLINK_WriteReg(R12, 0x00000000)  returns 0x00 (0000ms, 0709ms total)
TBDB4 001:090 JLINK_WriteReg(R13 (SP), 0x20000800)  returns 0x00 (0000ms, 0709ms total)
TBDB4 001:090 JLINK_WriteReg(R14, 0x20000001)  returns 0x00 (0000ms, 0709ms total)
TBDB4 001:090 JLINK_WriteReg(R15 (PC), 0x20000038)  returns 0x00 (0000ms, 0709ms total)
TBDB4 001:090 JLINK_WriteReg(XPSR, 0x01000000)  returns 0x00 (0000ms, 0709ms total)
TBDB4 001:090 JLINK_WriteReg(MSP, 0x20000800)  returns 0x00 (0000ms, 0709ms total)
TBDB4 001:090 JLINK_WriteReg(PSP, 0x20000800)  returns 0x00 (0000ms, 0709ms total)
TBDB4 001:090 JLINK_WriteReg(CFBP, 0x00000000)  returns 0x00 (0000ms, 0709ms total)
TBDB4 001:090 JLINK_SetBPEx(Addr = 0x20000000, Type = 0xFFFFFFF2) -- CPU_ReadMem(2 bytes @ 0x20000000)  returns 0x00000004 (0001ms, 0710ms total)
TBDB4 001:091 JLINK_Go() -- CPU_WriteMem(2 bytes @ 0x20000000) (0003ms, 0713ms total)
TBDB4 001:094 JLINK_IsHalted() -- CPU_ReadMem(2 bytes @ 0x20000000)  returns TRUE (0003ms, 0716ms total)
TBDB4 001:097 JLINK_ReadReg(R15 (PC))  returns 0x20000000 (0000ms, 0713ms total)
TBDB4 001:097 JLINK_ClrBPEx(BPHandle = 0x00000004)  returns 0x00 (0000ms, 0713ms total)
TBDB4 001:097 JLINK_ReadReg(R0)  returns 0x00000000 (0000ms, 0713ms total)
TBDB4 001:097 JLINK_WriteMem(0x20000164, 0x0400 Bytes, ...) -- Data:  38 04 00 20 ED 1F 00 08 F1 20 00 08 F3 20 00 08 ... -- CPU_WriteMem(1024 bytes @ 0x20000164)  returns 0x400 (0007ms, 0720ms total)
TBDB4 001:104 JLINK_WriteReg(R0, 0x08000000)  returns 0x00 (0000ms, 0720ms total)
TBDB4 001:104 JLINK_WriteReg(R1, 0x00000400)  returns 0x00 (0000ms, 0720ms total)
TBDB4 001:104 JLINK_WriteReg(R2, 0x20000164)  returns 0x00 (0000ms, 0720ms total)
TBDB4 001:104 JLINK_WriteReg(R3, 0x00000000)  returns 0x00 (0000ms, 0720ms total)
TBDB4 001:104 JLINK_WriteReg(R4, 0x00000000)  returns 0x00 (0000ms, 0720ms total)
TBDB4 001:104 JLINK_WriteReg(R5, 0x00000000)  returns 0x00 (0000ms, 0720ms total)
TBDB4 001:104 JLINK_WriteReg(R6, 0x00000000)  returns 0x00 (0000ms, 0720ms total)
TBDB4 001:104 JLINK_WriteReg(R7, 0x00000000)  returns 0x00 (0000ms, 0720ms total)
TBDB4 001:104 JLINK_WriteReg(R8, 0x00000000)  returns 0x00 (0000ms, 0720ms total)
TBDB4 001:104 JLINK_WriteReg(R9, 0x20000160)  returns 0x00 (0000ms, 0720ms total)
TBDB4 001:104 JLINK_WriteReg(R10, 0x00000000)  returns 0x00 (0000ms, 0720ms total)
TBDB4 001:104 JLINK_WriteReg(R11, 0x00000000)  returns 0x00 (0000ms, 0720ms total)
TBDB4 001:104 JLINK_WriteReg(R12, 0x00000000)  returns 0x00 (0000ms, 0720ms total)
TBDB4 001:104 JLINK_WriteReg(R13 (SP), 0x20000800)  returns 0x00 (0000ms, 0720ms total)
TBDB4 001:104 JLINK_WriteReg(R14, 0x20000001)  returns 0x00 (0000ms, 0720ms total)
TBDB4 001:104 JLINK_WriteReg(R15 (PC), 0x200000F4)  returns 0x00 (0000ms, 0720ms total)
TBDB4 001:104 JLINK_WriteReg(XPSR, 0x01000000)  returns 0x00 (0000ms, 0720ms total)
TBDB4 001:104 JLINK_WriteReg(MSP, 0x20000800)  returns 0x00 (0000ms, 0720ms total)
TBDB4 001:104 JLINK_WriteReg(PSP, 0x20000800)  returns 0x00 (0000ms, 0720ms total)
TBDB4 001:104 JLINK_WriteReg(CFBP, 0x00000000)  returns 0x00 (0000ms, 0720ms total)
TBDB4 001:104 JLINK_SetBPEx(Addr = 0x20000000, Type = 0xFFFFFFF2)  returns 0x00000005 (0000ms, 0720ms total)
TBDB4 001:104 JLINK_Go() (0002ms, 0722ms total)
TBDB4 001:106 JLINK_IsHalted()  returns FALSE (0001ms, 0723ms total)
TBDB4 001:122 JLINK_IsHalted()  returns FALSE (0000ms, 0722ms total)
TBDB4 001:128 JLINK_IsHalted()  returns FALSE (0000ms, 0722ms total)
TBDB4 001:130 JLINK_IsHalted()  returns FALSE (0000ms, 0722ms total)
TBDB4 001:132 JLINK_IsHalted()  returns FALSE (0000ms, 0722ms total)
TBDB4 001:134 JLINK_IsHalted()  returns FALSE (0000ms, 0722ms total)
TBDB4 001:137 JLINK_IsHalted() -- CPU_ReadMem(2 bytes @ 0x20000000)  returns TRUE (0003ms, 0725ms total)
TBDB4 001:140 JLINK_ReadReg(R15 (PC))  returns 0x20000000 (0000ms, 0722ms total)
TBDB4 001:140 JLINK_ClrBPEx(BPHandle = 0x00000005)  returns 0x00 (0000ms, 0722ms total)
TBDB4 001:140 JLINK_ReadReg(R0)  returns 0x00000000 (0000ms, 0722ms total)
TBDB4 001:141 JLINK_WriteMem(0x20000164, 0x0400 Bytes, ...) -- Data:  10 20 00 F0 11 FB 2E E0 BD 48 84 42 08 D1 01 21 ... -- CPU_WriteMem(1024 bytes @ 0x20000164)  returns 0x400 (0006ms, 0728ms total)
TBDB4 001:147 JLINK_WriteReg(R0, 0x08000400)  returns 0x00 (0000ms, 0728ms total)
TBDB4 001:147 JLINK_WriteReg(R1, 0x00000400)  returns 0x00 (0000ms, 0728ms total)
TBDB4 001:147 JLINK_WriteReg(R2, 0x20000164)  returns 0x00 (0000ms, 0728ms total)
TBDB4 001:147 JLINK_WriteReg(R3, 0x00000000)  returns 0x00 (0000ms, 0728ms total)
TBDB4 001:147 JLINK_WriteReg(R4, 0x00000000)  returns 0x00 (0000ms, 0728ms total)
TBDB4 001:147 JLINK_WriteReg(R5, 0x00000000)  returns 0x00 (0000ms, 0728ms total)
TBDB4 001:147 JLINK_WriteReg(R6, 0x00000000)  returns 0x00 (0000ms, 0728ms total)
TBDB4 001:147 JLINK_WriteReg(R7, 0x00000000)  returns 0x00 (0000ms, 0728ms total)
TBDB4 001:147 JLINK_WriteReg(R8, 0x00000000)  returns 0x00 (0000ms, 0728ms total)
TBDB4 001:147 JLINK_WriteReg(R9, 0x20000160)  returns 0x00 (0000ms, 0728ms total)
TBDB4 001:147 JLINK_WriteReg(R10, 0x00000000)  returns 0x00 (0000ms, 0728ms total)
TBDB4 001:147 JLINK_WriteReg(R11, 0x00000000)  returns 0x00 (0000ms, 0728ms total)
TBDB4 001:147 JLINK_WriteReg(R12, 0x00000000)  returns 0x00 (0000ms, 0728ms total)
TBDB4 001:147 JLINK_WriteReg(R13 (SP), 0x20000800)  returns 0x00 (0000ms, 0728ms total)
TBDB4 001:147 JLINK_WriteReg(R14, 0x20000001)  returns 0x00 (0000ms, 0728ms total)
TBDB4 001:147 JLINK_WriteReg(R15 (PC), 0x200000F4)  returns 0x00 (0000ms, 0728ms total)
TBDB4 001:147 JLINK_WriteReg(XPSR, 0x01000000)  returns 0x00 (0000ms, 0728ms total)
TBDB4 001:147 JLINK_WriteReg(MSP, 0x20000800)  returns 0x00 (0000ms, 0728ms total)
TBDB4 001:147 JLINK_WriteReg(PSP, 0x20000800)  returns 0x00 (0000ms, 0728ms total)
TBDB4 001:147 JLINK_WriteReg(CFBP, 0x00000000)  returns 0x00 (0000ms, 0728ms total)
TBDB4 001:147 JLINK_SetBPEx(Addr = 0x20000000, Type = 0xFFFFFFF2)  returns 0x00000006 (0000ms, 0728ms total)
TBDB4 001:147 JLINK_Go() (0002ms, 0730ms total)
TBDB4 001:149 JLINK_IsHalted()  returns FALSE (0000ms, 0730ms total)
TBDB4 001:152 JLINK_IsHalted()  returns FALSE (0000ms, 0730ms total)
TBDB4 001:154 JLINK_IsHalted()  returns FALSE (0000ms, 0730ms total)
TBDB4 001:156 JLINK_IsHalted()  returns FALSE (0000ms, 0730ms total)
TBDB4 001:158 JLINK_IsHalted()  returns FALSE (0000ms, 0730ms total)
TBDB4 001:160 JLINK_IsHalted()  returns FALSE (0000ms, 0730ms total)
TBDB4 001:162 JLINK_IsHalted()  returns FALSE (0000ms, 0730ms total)
TBDB4 001:164 JLINK_IsHalted()  returns FALSE (0000ms, 0730ms total)
TBDB4 001:166 JLINK_IsHalted()  returns FALSE (0000ms, 0730ms total)
TBDB4 001:173 JLINK_IsHalted()  returns FALSE (0000ms, 0730ms total)
TBDB4 001:175 JLINK_IsHalted()  returns FALSE (0000ms, 0730ms total)
TBDB4 001:177 JLINK_IsHalted()  returns FALSE (0000ms, 0730ms total)
TBDB4 001:179 JLINK_IsHalted()  returns FALSE (0000ms, 0730ms total)
TBDB4 001:181 JLINK_IsHalted() -- CPU_ReadMem(2 bytes @ 0x20000000)  returns TRUE (0003ms, 0733ms total)
TBDB4 001:184 JLINK_ReadReg(R15 (PC))  returns 0x20000000 (0000ms, 0730ms total)
TBDB4 001:184 JLINK_ClrBPEx(BPHandle = 0x00000006)  returns 0x00 (0000ms, 0730ms total)
TBDB4 001:184 JLINK_ReadReg(R0)  returns 0x00000000 (0000ms, 0730ms total)
TBDB4 001:185 JLINK_WriteMem(0x20000164, 0x0400 Bytes, ...) -- Data:  CE FF 08 B1 01 24 00 E0 00 24 20 46 38 BD 01 46 ... -- CPU_WriteMem(1024 bytes @ 0x20000164)  returns 0x400 (0006ms, 0736ms total)
TBDB4 001:191 JLINK_WriteReg(R0, 0x08000800)  returns 0x00 (0000ms, 0736ms total)
TBDB4 001:191 JLINK_WriteReg(R1, 0x00000400)  returns 0x00 (0000ms, 0736ms total)
TBDB4 001:191 JLINK_WriteReg(R2, 0x20000164)  returns 0x00 (0000ms, 0736ms total)
TBDB4 001:191 JLINK_WriteReg(R3, 0x00000000)  returns 0x00 (0000ms, 0736ms total)
TBDB4 001:191 JLINK_WriteReg(R4, 0x00000000)  returns 0x00 (0000ms, 0736ms total)
TBDB4 001:191 JLINK_WriteReg(R5, 0x00000000)  returns 0x00 (0000ms, 0736ms total)
TBDB4 001:191 JLINK_WriteReg(R6, 0x00000000)  returns 0x00 (0000ms, 0736ms total)
TBDB4 001:191 JLINK_WriteReg(R7, 0x00000000)  returns 0x00 (0000ms, 0736ms total)
TBDB4 001:191 JLINK_WriteReg(R8, 0x00000000)  returns 0x00 (0000ms, 0736ms total)
TBDB4 001:191 JLINK_WriteReg(R9, 0x20000160)  returns 0x00 (0000ms, 0736ms total)
TBDB4 001:191 JLINK_WriteReg(R10, 0x00000000)  returns 0x00 (0000ms, 0736ms total)
TBDB4 001:191 JLINK_WriteReg(R11, 0x00000000)  returns 0x00 (0000ms, 0736ms total)
TBDB4 001:191 JLINK_WriteReg(R12, 0x00000000)  returns 0x00 (0000ms, 0736ms total)
TBDB4 001:191 JLINK_WriteReg(R13 (SP), 0x20000800)  returns 0x00 (0000ms, 0736ms total)
TBDB4 001:191 JLINK_WriteReg(R14, 0x20000001)  returns 0x00 (0000ms, 0736ms total)
TBDB4 001:191 JLINK_WriteReg(R15 (PC), 0x200000F4)  returns 0x00 (0000ms, 0736ms total)
TBDB4 001:191 JLINK_WriteReg(XPSR, 0x01000000)  returns 0x00 (0000ms, 0736ms total)
TBDB4 001:191 JLINK_WriteReg(MSP, 0x20000800)  returns 0x00 (0000ms, 0736ms total)
TBDB4 001:191 JLINK_WriteReg(PSP, 0x20000800)  returns 0x00 (0000ms, 0736ms total)
TBDB4 001:191 JLINK_WriteReg(CFBP, 0x00000000)  returns 0x00 (0000ms, 0736ms total)
TBDB4 001:191 JLINK_SetBPEx(Addr = 0x20000000, Type = 0xFFFFFFF2)  returns 0x00000007 (0000ms, 0736ms total)
TBDB4 001:191 JLINK_Go() (0002ms, 0738ms total)
TBDB4 001:193 JLINK_IsHalted()  returns FALSE (0000ms, 0738ms total)
TBDB4 001:201 JLINK_IsHalted()  returns FALSE (0000ms, 0738ms total)
TBDB4 001:203 JLINK_IsHalted()  returns FALSE (0000ms, 0738ms total)
TBDB4 001:205 JLINK_IsHalted()  returns FALSE (0000ms, 0738ms total)
TBDB4 001:207 JLINK_IsHalted()  returns FALSE (0000ms, 0738ms total)
TBDB4 001:209 JLINK_IsHalted()  returns FALSE (0000ms, 0738ms total)
TBDB4 001:211 JLINK_IsHalted()  returns FALSE (0000ms, 0738ms total)
TBDB4 001:213 JLINK_IsHalted()  returns FALSE (0000ms, 0738ms total)
TBDB4 001:215 JLINK_IsHalted()  returns FALSE (0000ms, 0738ms total)
TBDB4 001:225 JLINK_IsHalted() -- CPU_ReadMem(2 bytes @ 0x20000000)  returns TRUE (0003ms, 0741ms total)
TBDB4 001:228 JLINK_ReadReg(R15 (PC))  returns 0x20000000 (0000ms, 0738ms total)
TBDB4 001:228 JLINK_ClrBPEx(BPHandle = 0x00000007)  returns 0x00 (0000ms, 0738ms total)
TBDB4 001:228 JLINK_ReadReg(R0)  returns 0x00000000 (0000ms, 0738ms total)
TBDB4 001:229 JLINK_WriteMem(0x20000164, 0x0400 Bytes, ...) -- Data:  08 00 38 43 28 84 A0 88 A1 89 08 43 61 88 08 43 ... -- CPU_WriteMem(1024 bytes @ 0x20000164)  returns 0x400 (0006ms, 0744ms total)
TBDB4 001:235 JLINK_WriteReg(R0, 0x08000C00)  returns 0x00 (0000ms, 0744ms total)
TBDB4 001:235 JLINK_WriteReg(R1, 0x00000400)  returns 0x00 (0000ms, 0744ms total)
TBDB4 001:235 JLINK_WriteReg(R2, 0x20000164)  returns 0x00 (0000ms, 0744ms total)
TBDB4 001:235 JLINK_WriteReg(R3, 0x00000000)  returns 0x00 (0000ms, 0744ms total)
TBDB4 001:235 JLINK_WriteReg(R4, 0x00000000)  returns 0x00 (0000ms, 0744ms total)
TBDB4 001:235 JLINK_WriteReg(R5, 0x00000000)  returns 0x00 (0000ms, 0744ms total)
TBDB4 001:235 JLINK_WriteReg(R6, 0x00000000)  returns 0x00 (0000ms, 0744ms total)
TBDB4 001:235 JLINK_WriteReg(R7, 0x00000000)  returns 0x00 (0000ms, 0744ms total)
TBDB4 001:235 JLINK_WriteReg(R8, 0x00000000)  returns 0x00 (0000ms, 0744ms total)
TBDB4 001:235 JLINK_WriteReg(R9, 0x20000160)  returns 0x00 (0000ms, 0744ms total)
TBDB4 001:235 JLINK_WriteReg(R10, 0x00000000)  returns 0x00 (0000ms, 0744ms total)
TBDB4 001:235 JLINK_WriteReg(R11, 0x00000000)  returns 0x00 (0000ms, 0744ms total)
TBDB4 001:235 JLINK_WriteReg(R12, 0x00000000)  returns 0x00 (0000ms, 0744ms total)
TBDB4 001:235 JLINK_WriteReg(R13 (SP), 0x20000800)  returns 0x00 (0000ms, 0744ms total)
TBDB4 001:235 JLINK_WriteReg(R14, 0x20000001)  returns 0x00 (0000ms, 0744ms total)
TBDB4 001:235 JLINK_WriteReg(R15 (PC), 0x200000F4)  returns 0x00 (0000ms, 0744ms total)
TBDB4 001:235 JLINK_WriteReg(XPSR, 0x01000000)  returns 0x00 (0000ms, 0744ms total)
TBDB4 001:235 JLINK_WriteReg(MSP, 0x20000800)  returns 0x00 (0000ms, 0744ms total)
TBDB4 001:235 JLINK_WriteReg(PSP, 0x20000800)  returns 0x00 (0000ms, 0744ms total)
TBDB4 001:235 JLINK_WriteReg(CFBP, 0x00000000)  returns 0x00 (0000ms, 0744ms total)
TBDB4 001:235 JLINK_SetBPEx(Addr = 0x20000000, Type = 0xFFFFFFF2)  returns 0x00000008 (0000ms, 0744ms total)
TBDB4 001:235 JLINK_Go() (0002ms, 0746ms total)
TBDB4 001:237 JLINK_IsHalted()  returns FALSE (0000ms, 0746ms total)
TBDB4 001:244 JLINK_IsHalted()  returns FALSE (0000ms, 0746ms total)
TBDB4 001:247 JLINK_IsHalted()  returns FALSE (0000ms, 0746ms total)
TBDB4 001:249 JLINK_IsHalted()  returns FALSE (0000ms, 0746ms total)
TBDB4 001:251 JLINK_IsHalted()  returns FALSE (0000ms, 0746ms total)
TBDB4 001:253 JLINK_IsHalted()  returns FALSE (0000ms, 0746ms total)
TBDB4 001:255 JLINK_IsHalted()  returns FALSE (0000ms, 0746ms total)
TBDB4 001:257 JLINK_IsHalted()  returns FALSE (0000ms, 0746ms total)
TBDB4 001:260 JLINK_IsHalted()  returns FALSE (0000ms, 0746ms total)
TBDB4 001:262 JLINK_IsHalted()  returns FALSE (0000ms, 0746ms total)
TBDB4 001:264 JLINK_IsHalted()  returns FALSE (0000ms, 0746ms total)
TBDB4 001:266 JLINK_IsHalted()  returns FALSE (0001ms, 0747ms total)
TBDB4 001:269 JLINK_IsHalted() -- CPU_ReadMem(2 bytes @ 0x20000000)  returns TRUE (0004ms, 0750ms total)
TBDB4 001:273 JLINK_ReadReg(R15 (PC))  returns 0x20000000 (0000ms, 0746ms total)
TBDB4 001:273 JLINK_ClrBPEx(BPHandle = 0x00000008)  returns 0x00 (0000ms, 0746ms total)
TBDB4 001:273 JLINK_ReadReg(R0)  returns 0x00000000 (0000ms, 0746ms total)
TBDB4 001:273 JLINK_WriteMem(0x20000164, 0x0400 Bytes, ...) -- Data:  04 8B 4F F6 8F 75 2C 40 B5 1E 2C 40 0D 88 2C 43 ... -- CPU_WriteMem(1024 bytes @ 0x20000164)  returns 0x400 (0006ms, 0752ms total)
TBDB4 001:279 JLINK_WriteReg(R0, 0x08001000)  returns 0x00 (0000ms, 0752ms total)
TBDB4 001:279 JLINK_WriteReg(R1, 0x00000400)  returns 0x00 (0000ms, 0752ms total)
TBDB4 001:279 JLINK_WriteReg(R2, 0x20000164)  returns 0x00 (0000ms, 0752ms total)
TBDB4 001:279 JLINK_WriteReg(R3, 0x00000000)  returns 0x00 (0000ms, 0752ms total)
TBDB4 001:279 JLINK_WriteReg(R4, 0x00000000)  returns 0x00 (0000ms, 0752ms total)
TBDB4 001:279 JLINK_WriteReg(R5, 0x00000000)  returns 0x00 (0000ms, 0752ms total)
TBDB4 001:279 JLINK_WriteReg(R6, 0x00000000)  returns 0x00 (0000ms, 0752ms total)
TBDB4 001:279 JLINK_WriteReg(R7, 0x00000000)  returns 0x00 (0000ms, 0752ms total)
TBDB4 001:279 JLINK_WriteReg(R8, 0x00000000)  returns 0x00 (0000ms, 0752ms total)
TBDB4 001:279 JLINK_WriteReg(R9, 0x20000160)  returns 0x00 (0000ms, 0752ms total)
TBDB4 001:279 JLINK_WriteReg(R10, 0x00000000)  returns 0x00 (0000ms, 0752ms total)
TBDB4 001:279 JLINK_WriteReg(R11, 0x00000000)  returns 0x00 (0000ms, 0752ms total)
TBDB4 001:279 JLINK_WriteReg(R12, 0x00000000)  returns 0x00 (0000ms, 0752ms total)
TBDB4 001:279 JLINK_WriteReg(R13 (SP), 0x20000800)  returns 0x00 (0000ms, 0752ms total)
TBDB4 001:279 JLINK_WriteReg(R14, 0x20000001)  returns 0x00 (0000ms, 0752ms total)
TBDB4 001:279 JLINK_WriteReg(R15 (PC), 0x200000F4)  returns 0x00 (0000ms, 0752ms total)
TBDB4 001:279 JLINK_WriteReg(XPSR, 0x01000000)  returns 0x00 (0000ms, 0752ms total)
TBDB4 001:279 JLINK_WriteReg(MSP, 0x20000800)  returns 0x00 (0000ms, 0752ms total)
TBDB4 001:279 JLINK_WriteReg(PSP, 0x20000800)  returns 0x00 (0000ms, 0752ms total)
TBDB4 001:279 JLINK_WriteReg(CFBP, 0x00000000)  returns 0x00 (0000ms, 0752ms total)
TBDB4 001:279 JLINK_SetBPEx(Addr = 0x20000000, Type = 0xFFFFFFF2)  returns 0x00000009 (0000ms, 0752ms total)
TBDB4 001:279 JLINK_Go() (0002ms, 0754ms total)
TBDB4 001:281 JLINK_IsHalted()  returns FALSE (0001ms, 0755ms total)
TBDB4 001:288 JLINK_IsHalted()  returns FALSE (0000ms, 0754ms total)
TBDB4 001:291 JLINK_IsHalted()  returns FALSE (0000ms, 0754ms total)
TBDB4 001:293 JLINK_IsHalted()  returns FALSE (0000ms, 0754ms total)
TBDB4 001:295 JLINK_IsHalted()  returns FALSE (0000ms, 0754ms total)
TBDB4 001:297 JLINK_IsHalted()  returns FALSE (0000ms, 0754ms total)
TBDB4 001:299 JLINK_IsHalted()  returns FALSE (0000ms, 0754ms total)
TBDB4 001:301 JLINK_IsHalted()  returns FALSE (0001ms, 0755ms total)
TBDB4 001:304 JLINK_IsHalted()  returns FALSE (0000ms, 0754ms total)
TBDB4 001:306 JLINK_IsHalted()  returns FALSE (0000ms, 0754ms total)
TBDB4 001:308 JLINK_IsHalted()  returns FALSE (0000ms, 0754ms total)
TBDB4 001:310 JLINK_IsHalted()  returns FALSE (0000ms, 0754ms total)
TBDB4 001:312 JLINK_IsHalted() -- CPU_ReadMem(2 bytes @ 0x20000000)  returns TRUE (0003ms, 0757ms total)
TBDB4 001:315 JLINK_ReadReg(R15 (PC))  returns 0x20000000 (0000ms, 0754ms total)
TBDB4 001:315 JLINK_ClrBPEx(BPHandle = 0x00000009)  returns 0x00 (0000ms, 0754ms total)
TBDB4 001:315 JLINK_ReadReg(R0)  returns 0x00000000 (0000ms, 0754ms total)
TBDB4 001:316 JLINK_WriteMem(0x20000164, 0x0400 Bytes, ...) -- Data:  10 07 39 43 05 E0 4F F6 5F 77 39 40 44 F0 10 07 ... -- CPU_WriteMem(1024 bytes @ 0x20000164)  returns 0x400 (0006ms, 0760ms total)
TBDB4 001:322 JLINK_WriteReg(R0, 0x08001400)  returns 0x00 (0000ms, 0760ms total)
TBDB4 001:322 JLINK_WriteReg(R1, 0x00000400)  returns 0x00 (0000ms, 0760ms total)
TBDB4 001:322 JLINK_WriteReg(R2, 0x20000164)  returns 0x00 (0000ms, 0760ms total)
TBDB4 001:322 JLINK_WriteReg(R3, 0x00000000)  returns 0x00 (0000ms, 0760ms total)
TBDB4 001:322 JLINK_WriteReg(R4, 0x00000000)  returns 0x00 (0000ms, 0760ms total)
TBDB4 001:322 JLINK_WriteReg(R5, 0x00000000)  returns 0x00 (0000ms, 0760ms total)
TBDB4 001:322 JLINK_WriteReg(R6, 0x00000000)  returns 0x00 (0000ms, 0760ms total)
TBDB4 001:322 JLINK_WriteReg(R7, 0x00000000)  returns 0x00 (0000ms, 0760ms total)
TBDB4 001:322 JLINK_WriteReg(R8, 0x00000000)  returns 0x00 (0000ms, 0760ms total)
TBDB4 001:322 JLINK_WriteReg(R9, 0x20000160)  returns 0x00 (0000ms, 0760ms total)
TBDB4 001:322 JLINK_WriteReg(R10, 0x00000000)  returns 0x00 (0000ms, 0760ms total)
TBDB4 001:322 JLINK_WriteReg(R11, 0x00000000)  returns 0x00 (0000ms, 0760ms total)
TBDB4 001:322 JLINK_WriteReg(R12, 0x00000000)  returns 0x00 (0000ms, 0760ms total)
TBDB4 001:322 JLINK_WriteReg(R13 (SP), 0x20000800)  returns 0x00 (0000ms, 0760ms total)
TBDB4 001:322 JLINK_WriteReg(R14, 0x20000001)  returns 0x00 (0000ms, 0760ms total)
TBDB4 001:322 JLINK_WriteReg(R15 (PC), 0x200000F4)  returns 0x00 (0000ms, 0760ms total)
TBDB4 001:322 JLINK_WriteReg(XPSR, 0x01000000)  returns 0x00 (0000ms, 0760ms total)
TBDB4 001:322 JLINK_WriteReg(MSP, 0x20000800)  returns 0x00 (0000ms, 0760ms total)
TBDB4 001:322 JLINK_WriteReg(PSP, 0x20000800)  returns 0x00 (0000ms, 0760ms total)
TBDB4 001:322 JLINK_WriteReg(CFBP, 0x00000000)  returns 0x00 (0000ms, 0760ms total)
TBDB4 001:322 JLINK_SetBPEx(Addr = 0x20000000, Type = 0xFFFFFFF2)  returns 0x0000000A (0000ms, 0760ms total)
TBDB4 001:322 JLINK_Go() (0002ms, 0762ms total)
TBDB4 001:324 JLINK_IsHalted()  returns FALSE (0000ms, 0762ms total)
TBDB4 001:336 JLINK_IsHalted()  returns FALSE (0000ms, 0762ms total)
TBDB4 001:338 JLINK_IsHalted()  returns FALSE (0000ms, 0762ms total)
TBDB4 001:340 JLINK_IsHalted()  returns FALSE (0000ms, 0762ms total)
TBDB4 001:346 JLINK_IsHalted()  returns FALSE (0000ms, 0762ms total)
TBDB4 001:348 JLINK_IsHalted()  returns FALSE (0000ms, 0762ms total)
TBDB4 001:350 JLINK_IsHalted()  returns FALSE (0000ms, 0762ms total)
TBDB4 001:352 JLINK_IsHalted()  returns FALSE (0000ms, 0762ms total)
TBDB4 001:354 JLINK_IsHalted()  returns FALSE (0000ms, 0762ms total)
TBDB4 001:356 JLINK_IsHalted() -- CPU_ReadMem(2 bytes @ 0x20000000)  returns TRUE (0003ms, 0765ms total)
TBDB4 001:359 JLINK_ReadReg(R15 (PC))  returns 0x20000000 (0000ms, 0762ms total)
TBDB4 001:359 JLINK_ClrBPEx(BPHandle = 0x0000000A)  returns 0x00 (0000ms, 0762ms total)
TBDB4 001:359 JLINK_ReadReg(R0)  returns 0x00000000 (0000ms, 0762ms total)
TBDB4 001:360 JLINK_WriteMem(0x20000164, 0x0400 Bytes, ...) -- Data:  81 8B 4F F6 8F 73 19 40 11 43 81 83 70 47 0A 46 ... -- CPU_WriteMem(1024 bytes @ 0x20000164)  returns 0x400 (0006ms, 0768ms total)
TBDB4 001:366 JLINK_WriteReg(R0, 0x08001800)  returns 0x00 (0000ms, 0768ms total)
TBDB4 001:366 JLINK_WriteReg(R1, 0x00000400)  returns 0x00 (0000ms, 0768ms total)
TBDB4 001:366 JLINK_WriteReg(R2, 0x20000164)  returns 0x00 (0000ms, 0768ms total)
TBDB4 001:366 JLINK_WriteReg(R3, 0x00000000)  returns 0x00 (0000ms, 0768ms total)
TBDB4 001:366 JLINK_WriteReg(R4, 0x00000000)  returns 0x00 (0000ms, 0768ms total)
TBDB4 001:366 JLINK_WriteReg(R5, 0x00000000)  returns 0x00 (0000ms, 0768ms total)
TBDB4 001:366 JLINK_WriteReg(R6, 0x00000000)  returns 0x00 (0000ms, 0768ms total)
TBDB4 001:366 JLINK_WriteReg(R7, 0x00000000)  returns 0x00 (0000ms, 0768ms total)
TBDB4 001:366 JLINK_WriteReg(R8, 0x00000000)  returns 0x00 (0000ms, 0768ms total)
TBDB4 001:366 JLINK_WriteReg(R9, 0x20000160)  returns 0x00 (0000ms, 0768ms total)
TBDB4 001:366 JLINK_WriteReg(R10, 0x00000000)  returns 0x00 (0000ms, 0768ms total)
TBDB4 001:366 JLINK_WriteReg(R11, 0x00000000)  returns 0x00 (0000ms, 0768ms total)
TBDB4 001:366 JLINK_WriteReg(R12, 0x00000000)  returns 0x00 (0000ms, 0768ms total)
TBDB4 001:366 JLINK_WriteReg(R13 (SP), 0x20000800)  returns 0x00 (0000ms, 0768ms total)
TBDB4 001:366 JLINK_WriteReg(R14, 0x20000001)  returns 0x00 (0000ms, 0768ms total)
TBDB4 001:366 JLINK_WriteReg(R15 (PC), 0x200000F4)  returns 0x00 (0000ms, 0768ms total)
TBDB4 001:366 JLINK_WriteReg(XPSR, 0x01000000)  returns 0x00 (0000ms, 0768ms total)
TBDB4 001:366 JLINK_WriteReg(MSP, 0x20000800)  returns 0x00 (0000ms, 0768ms total)
TBDB4 001:366 JLINK_WriteReg(PSP, 0x20000800)  returns 0x00 (0000ms, 0768ms total)
TBDB4 001:366 JLINK_WriteReg(CFBP, 0x00000000)  returns 0x00 (0000ms, 0768ms total)
TBDB4 001:366 JLINK_SetBPEx(Addr = 0x20000000, Type = 0xFFFFFFF2)  returns 0x0000000B (0000ms, 0768ms total)
TBDB4 001:366 JLINK_Go() (0002ms, 0770ms total)
TBDB4 001:368 JLINK_IsHalted()  returns FALSE (0000ms, 0770ms total)
TBDB4 001:372 JLINK_IsHalted()  returns FALSE (0000ms, 0770ms total)
TBDB4 001:374 JLINK_IsHalted()  returns FALSE (0000ms, 0770ms total)
TBDB4 001:376 JLINK_IsHalted()  returns FALSE (0001ms, 0771ms total)
TBDB4 001:379 JLINK_IsHalted()  returns FALSE (0000ms, 0770ms total)
TBDB4 001:381 JLINK_IsHalted()  returns FALSE (0000ms, 0770ms total)
TBDB4 001:383 JLINK_IsHalted()  returns FALSE (0000ms, 0770ms total)
TBDB4 001:385 JLINK_IsHalted()  returns FALSE (0000ms, 0770ms total)
TBDB4 001:391 JLINK_IsHalted()  returns FALSE (0000ms, 0770ms total)
TBDB4 001:393 JLINK_IsHalted()  returns FALSE (0000ms, 0770ms total)
TBDB4 001:395 JLINK_IsHalted()  returns FALSE (0001ms, 0771ms total)
TBDB4 001:398 JLINK_IsHalted()  returns FALSE (0000ms, 0770ms total)
TBDB4 001:400 JLINK_IsHalted() -- CPU_ReadMem(2 bytes @ 0x20000000)  returns TRUE (0004ms, 0774ms total)
TBDB4 001:404 JLINK_ReadReg(R15 (PC))  returns 0x20000000 (0000ms, 0770ms total)
TBDB4 001:404 JLINK_ClrBPEx(BPHandle = 0x0000000B)  returns 0x00 (0000ms, 0770ms total)
TBDB4 001:404 JLINK_ReadReg(R0)  returns 0x00000000 (0000ms, 0770ms total)
TBDB4 001:404 JLINK_WriteMem(0x20000164, 0x0400 Bytes, ...) -- Data:  32 E0 F6 48 84 42 09 D1 01 21 48 04 FE F7 19 FF ... -- CPU_WriteMem(1024 bytes @ 0x20000164)  returns 0x400 (0006ms, 0776ms total)
TBDB4 001:410 JLINK_WriteReg(R0, 0x08001C00)  returns 0x00 (0000ms, 0776ms total)
TBDB4 001:410 JLINK_WriteReg(R1, 0x00000400)  returns 0x00 (0000ms, 0776ms total)
TBDB4 001:410 JLINK_WriteReg(R2, 0x20000164)  returns 0x00 (0000ms, 0776ms total)
TBDB4 001:410 JLINK_WriteReg(R3, 0x00000000)  returns 0x00 (0000ms, 0776ms total)
TBDB4 001:410 JLINK_WriteReg(R4, 0x00000000)  returns 0x00 (0000ms, 0776ms total)
TBDB4 001:410 JLINK_WriteReg(R5, 0x00000000)  returns 0x00 (0000ms, 0776ms total)
TBDB4 001:410 JLINK_WriteReg(R6, 0x00000000)  returns 0x00 (0000ms, 0776ms total)
TBDB4 001:410 JLINK_WriteReg(R7, 0x00000000)  returns 0x00 (0000ms, 0776ms total)
TBDB4 001:410 JLINK_WriteReg(R8, 0x00000000)  returns 0x00 (0000ms, 0776ms total)
TBDB4 001:410 JLINK_WriteReg(R9, 0x20000160)  returns 0x00 (0000ms, 0776ms total)
TBDB4 001:410 JLINK_WriteReg(R10, 0x00000000)  returns 0x00 (0000ms, 0776ms total)
TBDB4 001:410 JLINK_WriteReg(R11, 0x00000000)  returns 0x00 (0000ms, 0776ms total)
TBDB4 001:410 JLINK_WriteReg(R12, 0x00000000)  returns 0x00 (0000ms, 0776ms total)
TBDB4 001:410 JLINK_WriteReg(R13 (SP), 0x20000800)  returns 0x00 (0000ms, 0776ms total)
TBDB4 001:410 JLINK_WriteReg(R14, 0x20000001)  returns 0x00 (0000ms, 0776ms total)
TBDB4 001:410 JLINK_WriteReg(R15 (PC), 0x200000F4)  returns 0x00 (0000ms, 0776ms total)
TBDB4 001:410 JLINK_WriteReg(XPSR, 0x01000000)  returns 0x00 (0000ms, 0776ms total)
TBDB4 001:410 JLINK_WriteReg(MSP, 0x20000800)  returns 0x00 (0000ms, 0776ms total)
TBDB4 001:410 JLINK_WriteReg(PSP, 0x20000800)  returns 0x00 (0000ms, 0776ms total)
TBDB4 001:410 JLINK_WriteReg(CFBP, 0x00000000)  returns 0x00 (0000ms, 0776ms total)
TBDB4 001:410 JLINK_SetBPEx(Addr = 0x20000000, Type = 0xFFFFFFF2)  returns 0x0000000C (0000ms, 0776ms total)
TBDB4 001:410 JLINK_Go() (0002ms, 0778ms total)
TBDB4 001:412 JLINK_IsHalted()  returns FALSE (0000ms, 0778ms total)
TBDB4 001:414 JLINK_IsHalted()  returns FALSE (0000ms, 0778ms total)
TBDB4 001:416 JLINK_IsHalted()  returns FALSE (0000ms, 0778ms total)
TBDB4 001:418 JLINK_IsHalted()  returns FALSE (0000ms, 0778ms total)
TBDB4 001:420 JLINK_IsHalted()  returns FALSE (0000ms, 0778ms total)
TBDB4 001:422 JLINK_IsHalted()  returns FALSE (0000ms, 0778ms total)
TBDB4 001:424 JLINK_IsHalted()  returns FALSE (0000ms, 0778ms total)
TBDB4 001:426 JLINK_IsHalted()  returns FALSE (0000ms, 0778ms total)
TBDB4 001:428 JLINK_IsHalted()  returns FALSE (0000ms, 0778ms total)
TBDB4 001:430 JLINK_IsHalted()  returns FALSE (0000ms, 0778ms total)
TBDB4 001:439 JLINK_IsHalted()  returns FALSE (0000ms, 0778ms total)
TBDB4 001:441 JLINK_IsHalted()  returns FALSE (0000ms, 0778ms total)
TBDB4 001:443 JLINK_IsHalted() -- CPU_ReadMem(2 bytes @ 0x20000000)  returns TRUE (0003ms, 0781ms total)
TBDB4 001:446 JLINK_ReadReg(R15 (PC))  returns 0x20000000 (0000ms, 0778ms total)
TBDB4 001:446 JLINK_ClrBPEx(BPHandle = 0x0000000C)  returns 0x00 (0000ms, 0778ms total)
TBDB4 001:446 JLINK_ReadReg(R0)  returns 0x00000000 (0000ms, 0778ms total)
TBDB4 001:447 JLINK_WriteMem(0x20000164, 0x0400 Bytes, ...) -- Data:  FE E7 FE E7 FE E7 FE E7 DF 01 00 08 ED 00 00 08 ... -- CPU_WriteMem(1024 bytes @ 0x20000164)  returns 0x400 (0006ms, 0784ms total)
TBDB4 001:453 JLINK_WriteReg(R0, 0x08002000)  returns 0x00 (0000ms, 0784ms total)
TBDB4 001:453 JLINK_WriteReg(R1, 0x00000400)  returns 0x00 (0000ms, 0784ms total)
TBDB4 001:453 JLINK_WriteReg(R2, 0x20000164)  returns 0x00 (0000ms, 0784ms total)
TBDB4 001:453 JLINK_WriteReg(R3, 0x00000000)  returns 0x00 (0000ms, 0784ms total)
TBDB4 001:453 JLINK_WriteReg(R4, 0x00000000)  returns 0x00 (0000ms, 0784ms total)
TBDB4 001:453 JLINK_WriteReg(R5, 0x00000000)  returns 0x00 (0000ms, 0784ms total)
TBDB4 001:453 JLINK_WriteReg(R6, 0x00000000)  returns 0x00 (0000ms, 0784ms total)
TBDB4 001:453 JLINK_WriteReg(R7, 0x00000000)  returns 0x00 (0000ms, 0784ms total)
TBDB4 001:453 JLINK_WriteReg(R8, 0x00000000)  returns 0x00 (0000ms, 0784ms total)
TBDB4 001:453 JLINK_WriteReg(R9, 0x20000160)  returns 0x00 (0000ms, 0784ms total)
TBDB4 001:453 JLINK_WriteReg(R10, 0x00000000)  returns 0x00 (0000ms, 0784ms total)
TBDB4 001:453 JLINK_WriteReg(R11, 0x00000000)  returns 0x00 (0000ms, 0784ms total)
TBDB4 001:453 JLINK_WriteReg(R12, 0x00000000)  returns 0x00 (0000ms, 0784ms total)
TBDB4 001:453 JLINK_WriteReg(R13 (SP), 0x20000800)  returns 0x00 (0000ms, 0784ms total)
TBDB4 001:453 JLINK_WriteReg(R14, 0x20000001)  returns 0x00 (0000ms, 0784ms total)
TBDB4 001:453 JLINK_WriteReg(R15 (PC), 0x200000F4)  returns 0x00 (0000ms, 0784ms total)
TBDB4 001:453 JLINK_WriteReg(XPSR, 0x01000000)  returns 0x00 (0000ms, 0784ms total)
TBDB4 001:453 JLINK_WriteReg(MSP, 0x20000800)  returns 0x00 (0000ms, 0784ms total)
TBDB4 001:453 JLINK_WriteReg(PSP, 0x20000800)  returns 0x00 (0000ms, 0784ms total)
TBDB4 001:453 JLINK_WriteReg(CFBP, 0x00000000)  returns 0x00 (0000ms, 0784ms total)
TBDB4 001:453 JLINK_SetBPEx(Addr = 0x20000000, Type = 0xFFFFFFF2)  returns 0x0000000D (0000ms, 0784ms total)
TBDB4 001:453 JLINK_Go() (0002ms, 0786ms total)
TBDB4 001:455 JLINK_IsHalted()  returns FALSE (0000ms, 0786ms total)
TBDB4 001:461 JLINK_IsHalted()  returns FALSE (0000ms, 0786ms total)
TBDB4 001:463 JLINK_IsHalted()  returns FALSE (0000ms, 0786ms total)
TBDB4 001:465 JLINK_IsHalted()  returns FALSE (0000ms, 0786ms total)
TBDB4 001:467 JLINK_IsHalted()  returns FALSE (0000ms, 0786ms total)
TBDB4 001:469 JLINK_IsHalted()  returns FALSE (0000ms, 0786ms total)
TBDB4 001:471 JLINK_IsHalted()  returns FALSE (0000ms, 0786ms total)
TBDB4 001:473 JLINK_IsHalted()  returns FALSE (0000ms, 0786ms total)
TBDB4 001:475 JLINK_IsHalted()  returns FALSE (0000ms, 0786ms total)
TBDB4 001:477 JLINK_IsHalted()  returns FALSE (0000ms, 0786ms total)
TBDB4 001:479 JLINK_IsHalted()  returns FALSE (0000ms, 0786ms total)
TBDB4 001:481 JLINK_IsHalted()  returns FALSE (0000ms, 0786ms total)
TBDB4 001:484 JLINK_IsHalted()  returns FALSE (0000ms, 0786ms total)
TBDB4 001:486 JLINK_IsHalted() -- CPU_ReadMem(2 bytes @ 0x20000000)  returns TRUE (0003ms, 0789ms total)
TBDB4 001:489 JLINK_ReadReg(R15 (PC))  returns 0x20000000 (0000ms, 0786ms total)
TBDB4 001:489 JLINK_ClrBPEx(BPHandle = 0x0000000D)  returns 0x00 (0000ms, 0786ms total)
TBDB4 001:489 JLINK_ReadReg(R0)  returns 0x00000000 (0000ms, 0786ms total)
TBDB4 001:490 JLINK_WriteMem(0x20000164, 0x0400 Bytes, ...) -- Data:  0F 21 20 20 FF F7 E0 FE 10 21 1F 48 FE F7 E3 F8 ... -- CPU_WriteMem(1024 bytes @ 0x20000164)  returns 0x400 (0006ms, 0792ms total)
TBDB4 001:496 JLINK_WriteReg(R0, 0x08002400)  returns 0x00 (0000ms, 0792ms total)
TBDB4 001:496 JLINK_WriteReg(R1, 0x00000400)  returns 0x00 (0000ms, 0792ms total)
TBDB4 001:496 JLINK_WriteReg(R2, 0x20000164)  returns 0x00 (0000ms, 0792ms total)
TBDB4 001:496 JLINK_WriteReg(R3, 0x00000000)  returns 0x00 (0000ms, 0792ms total)
TBDB4 001:496 JLINK_WriteReg(R4, 0x00000000)  returns 0x00 (0000ms, 0792ms total)
TBDB4 001:496 JLINK_WriteReg(R5, 0x00000000)  returns 0x00 (0000ms, 0792ms total)
TBDB4 001:496 JLINK_WriteReg(R6, 0x00000000)  returns 0x00 (0000ms, 0792ms total)
TBDB4 001:496 JLINK_WriteReg(R7, 0x00000000)  returns 0x00 (0000ms, 0792ms total)
TBDB4 001:496 JLINK_WriteReg(R8, 0x00000000)  returns 0x00 (0000ms, 0792ms total)
TBDB4 001:496 JLINK_WriteReg(R9, 0x20000160)  returns 0x00 (0000ms, 0792ms total)
TBDB4 001:496 JLINK_WriteReg(R10, 0x00000000)  returns 0x00 (0000ms, 0792ms total)
TBDB4 001:496 JLINK_WriteReg(R11, 0x00000000)  returns 0x00 (0000ms, 0792ms total)
TBDB4 001:496 JLINK_WriteReg(R12, 0x00000000)  returns 0x00 (0000ms, 0792ms total)
TBDB4 001:496 JLINK_WriteReg(R13 (SP), 0x20000800)  returns 0x00 (0000ms, 0792ms total)
TBDB4 001:496 JLINK_WriteReg(R14, 0x20000001)  returns 0x00 (0000ms, 0792ms total)
TBDB4 001:496 JLINK_WriteReg(R15 (PC), 0x200000F4)  returns 0x00 (0000ms, 0792ms total)
TBDB4 001:496 JLINK_WriteReg(XPSR, 0x01000000)  returns 0x00 (0000ms, 0792ms total)
TBDB4 001:496 JLINK_WriteReg(MSP, 0x20000800)  returns 0x00 (0000ms, 0792ms total)
TBDB4 001:496 JLINK_WriteReg(PSP, 0x20000800)  returns 0x00 (0000ms, 0792ms total)
TBDB4 001:496 JLINK_WriteReg(CFBP, 0x00000000)  returns 0x00 (0000ms, 0792ms total)
TBDB4 001:496 JLINK_SetBPEx(Addr = 0x20000000, Type = 0xFFFFFFF2)  returns 0x0000000E (0000ms, 0792ms total)
TBDB4 001:496 JLINK_Go() (0001ms, 0793ms total)
TBDB4 001:497 JLINK_IsHalted()  returns FALSE (0001ms, 0794ms total)
TBDB4 001:504 JLINK_IsHalted()  returns FALSE (0000ms, 0793ms total)
TBDB4 001:506 JLINK_IsHalted()  returns FALSE (0000ms, 0793ms total)
TBDB4 001:508 JLINK_IsHalted()  returns FALSE (0000ms, 0793ms total)
TBDB4 001:510 JLINK_IsHalted()  returns FALSE (0000ms, 0793ms total)
TBDB4 001:512 JLINK_IsHalted()  returns FALSE (0000ms, 0793ms total)
TBDB4 001:514 JLINK_IsHalted()  returns FALSE (0000ms, 0793ms total)
TBDB4 001:516 JLINK_IsHalted()  returns FALSE (0000ms, 0793ms total)
TBDB4 001:518 JLINK_IsHalted()  returns FALSE (0000ms, 0793ms total)
TBDB4 001:520 JLINK_IsHalted()  returns FALSE (0000ms, 0793ms total)
TBDB4 001:522 JLINK_IsHalted()  returns FALSE (0000ms, 0793ms total)
TBDB4 001:524 JLINK_IsHalted()  returns FALSE (0000ms, 0793ms total)
TBDB4 001:526 JLINK_IsHalted()  returns FALSE (0000ms, 0793ms total)
TBDB4 001:528 JLINK_IsHalted() -- CPU_ReadMem(2 bytes @ 0x20000000)  returns TRUE (0003ms, 0796ms total)
TBDB4 001:531 JLINK_ReadReg(R15 (PC))  returns 0x20000000 (0000ms, 0793ms total)
TBDB4 001:531 JLINK_ClrBPEx(BPHandle = 0x0000000E)  returns 0x00 (0000ms, 0793ms total)
TBDB4 001:531 JLINK_ReadReg(R0)  returns 0x00000000 (0000ms, 0793ms total)
TBDB4 001:532 JLINK_WriteMem(0x20000164, 0x0400 Bytes, ...) -- Data:  29 48 FD F7 EA FE 20 46 00 F0 21 FD 02 21 26 48 ... -- CPU_WriteMem(1024 bytes @ 0x20000164)  returns 0x400 (0005ms, 0798ms total)
TBDB4 001:537 JLINK_WriteReg(R0, 0x08002800)  returns 0x00 (0000ms, 0798ms total)
TBDB4 001:537 JLINK_WriteReg(R1, 0x00000400)  returns 0x00 (0000ms, 0798ms total)
TBDB4 001:537 JLINK_WriteReg(R2, 0x20000164)  returns 0x00 (0000ms, 0798ms total)
TBDB4 001:537 JLINK_WriteReg(R3, 0x00000000)  returns 0x00 (0000ms, 0798ms total)
TBDB4 001:537 JLINK_WriteReg(R4, 0x00000000)  returns 0x00 (0001ms, 0799ms total)
TBDB4 001:538 JLINK_WriteReg(R5, 0x00000000)  returns 0x00 (0000ms, 0799ms total)
TBDB4 001:538 JLINK_WriteReg(R6, 0x00000000)  returns 0x00 (0000ms, 0799ms total)
TBDB4 001:538 JLINK_WriteReg(R7, 0x00000000)  returns 0x00 (0000ms, 0799ms total)
TBDB4 001:538 JLINK_WriteReg(R8, 0x00000000)  returns 0x00 (0000ms, 0799ms total)
TBDB4 001:538 JLINK_WriteReg(R9, 0x20000160)  returns 0x00 (0000ms, 0799ms total)
TBDB4 001:538 JLINK_WriteReg(R10, 0x00000000)  returns 0x00 (0000ms, 0799ms total)
TBDB4 001:538 JLINK_WriteReg(R11, 0x00000000)  returns 0x00 (0000ms, 0799ms total)
TBDB4 001:538 JLINK_WriteReg(R12, 0x00000000)  returns 0x00 (0000ms, 0799ms total)
TBDB4 001:538 JLINK_WriteReg(R13 (SP), 0x20000800)  returns 0x00 (0000ms, 0799ms total)
TBDB4 001:538 JLINK_WriteReg(R14, 0x20000001)  returns 0x00 (0000ms, 0799ms total)
TBDB4 001:538 JLINK_WriteReg(R15 (PC), 0x200000F4)  returns 0x00 (0000ms, 0799ms total)
TBDB4 001:538 JLINK_WriteReg(XPSR, 0x01000000)  returns 0x00 (0000ms, 0799ms total)
TBDB4 001:538 JLINK_WriteReg(MSP, 0x20000800)  returns 0x00 (0000ms, 0799ms total)
TBDB4 001:538 JLINK_WriteReg(PSP, 0x20000800)  returns 0x00 (0000ms, 0799ms total)
TBDB4 001:538 JLINK_WriteReg(CFBP, 0x00000000)  returns 0x00 (0000ms, 0799ms total)
TBDB4 001:538 JLINK_SetBPEx(Addr = 0x20000000, Type = 0xFFFFFFF2)  returns 0x0000000F (0000ms, 0799ms total)
TBDB4 001:538 JLINK_Go() (0001ms, 0800ms total)
TBDB4 001:539 JLINK_IsHalted()  returns FALSE (0001ms, 0801ms total)
TBDB4 001:551 JLINK_IsHalted()  returns FALSE (0000ms, 0800ms total)
TBDB4 001:553 JLINK_IsHalted()  returns FALSE (0000ms, 0800ms total)
TBDB4 001:555 JLINK_IsHalted()  returns FALSE (0000ms, 0800ms total)
